T3CA0 3148:381 SEGGER J-Link V6.46 Log File (0000ms, 3252ms total)
T3CA0 3148:381 DLL Compiled: May 23 2019 17:49:56 (0000ms, 3252ms total)
T3CA0 3148:381 Logging started @ 2022-10-04 15:24 (0000ms, 3252ms total)
T3CA0 3148:381 JLINK_SetWarnOutHandler(...) (0000ms, 3252ms total)
T3CA0 3148:381 JLINK_OpenEx(...)
Firmware: J-Link V9 compiled May 17 2019 09:50:41
Hardware: V9.60
S/N: 69664453
Feature(s): RDI, GDB, FlashDL, FlashBP, JFlash
TELNET listener socket opened on port 19021WEBSRV 
Starting webserver (0045ms, 3297ms total)
T3CA0 3148:381 WEBSRV Webserver running on local port 19080 (0045ms, 3297ms total)
T3CA0 3148:381   returns O.K. (0045ms, 3297ms total)
T3CA0 3148:426 JLINK_GetEmuCaps()  returns 0xB9FF7BBF (0000ms, 3297ms total)
T3CA0 3148:426 JLINK_TIF_GetAvailable(...) (0001ms, 3298ms total)
T3CA0 3148:427 JLINK_SetErrorOutHandler(...) (0000ms, 3298ms total)
T3CA0 3148:427 JLINK_ExecCommand("ProjectFile = "C:\Users\Joker\Desktop\Robot-APP\JLinkSettings.ini"", ...).   returns 0x00 (0001ms, 3299ms total)
T3CA0 3148:428 JLINK_ExecCommand("Device = GD32F303VC", ...). Device "GD32F303VC" selected.  returns 0x00 (0001ms, 3300ms total)
T3CA0 3148:429 JLINK_ExecCommand("DisableConnectionTimeout", ...).   returns 0x01 (0000ms, 3300ms total)
T3CA0 3148:429 JLINK_GetHardwareVersion()  returns 0x17700 (0000ms, 3300ms total)
T3CA0 3148:429 JLINK_GetDLLVersion()  returns 64600 (0000ms, 3300ms total)
T3CA0 3148:429 JLINK_GetFirmwareString(...) (0000ms, 3300ms total)
T3CA0 3148:429 JLINK_GetDLLVersion()  returns 64600 (0000ms, 3300ms total)
T3CA0 3148:429 JLINK_GetCompileDateTime() (0000ms, 3300ms total)
T3CA0 3148:429 JLINK_GetFirmwareString(...) (0000ms, 3300ms total)
T3CA0 3148:429 JLINK_GetHardwareVersion()  returns 0x17700 (0000ms, 3300ms total)
T3CA0 3148:429 JLINK_TIF_Select(JLINKARM_TIF_SWD)  returns 0x00 (0001ms, 3301ms total)
T3CA0 3148:430 JLINK_SetSpeed(50000) (0001ms, 3302ms total)
T3CA0 3148:431 JLINK_GetId() >0x10B TIF>Found SW-DP with ID 0x2BA01477 >0x0D TIF> >0x28 TIF> >0x0D TIF> >0x28 TIF> >0x0D TIF> >0x28 TIF> >0x0D TIF> >0x28 TIF> >0x0D TIF> >0x21 TIF> >0x0D TIF> >0x28 TIF>Scanning AP map to find all available APs >0x0D TIF> >0x28 TIF> >0x0D TIF> >0x21 TIF> >0x0D TIF> >0x21 TIF> >0x0D TIF> >0x28 TIF> >0x0D TIF> >0x21 TIF> >0x0D TIF> >0x21 TIF>AP[1]: Stopped AP scan as end of AP map has been reachedAP[0]: AHB-AP (IDR: 0x24770011)Iterating through AP map to find AHB-AP to use
 >0x42 TIF> >0x28 TIF> >0x0D TIF> >0x28 TIF> >0x0D TIF> >0x21 TIF> >0x0D TIF> >0x21 TIF> >0x42 TIF> >0x28 TIF> >0x0D TIF> >0x28 TIF> >0x0D TIF> >0x28 TIF> >0x0D TIF> >0x21 TIF> >0x0D TIF> >0x21 TIF>AP[0]: Core foundAP[0]: AHB-AP ROM base: 0xE00FF000 >0x0D TIF> >0x28 TIF> >0x0D TIF> >0x28 TIF> >0x0D TIF> >0x28 TIF> >0x0D TIF> >0x21 TIF> >0x0D TIF> >0x21 TIF>CPUID register: 0x410FC241. Implementer code: 0x41 (ARM)Found Cortex-M4 r0p1, Little endian. -- Max. mem block: 0x00010F28
 -- CPU_ReadMem(4 bytes @ 0xE000EDF0) -- CPU_WriteMem(4 bytes @ 0xE000EDF0) -- CPU_ReadMem(4 bytes @ 0xE0002000)FPUnit: 6 code (BP) slots and 2 literal slots -- CPU_ReadMem(4 bytes @ 0xE000EDFC) -- CPU_WriteMem(4 bytes @ 0xE000EDFC) -- CPU_ReadMem(4 bytes @ 0xE0001000) -- CPU_WriteMem(4 bytes @ 0xE0001000) -- CPU_ReadMem(4 bytes @ 0xE000ED88) -- CPU_WriteMem(4 bytes @ 0xE000ED88) -- CPU_ReadMem(4 bytes @ 0xE000ED88) -- CPU_WriteMem(4 bytes @ 0xE000ED88)CoreSight components:ROMTbl[0] @ E00FF000
 -- CPU_ReadMem(16 bytes @ 0xE00FF000) -- CPU_ReadMem(16 bytes @ 0xE000EFF0) -- CPU_ReadMem(16 bytes @ 0xE000EFE0)ROMTbl[0][0]: E000E000, CID: B105E00D, PID: 000BB00C SCS-M7 -- CPU_ReadMem(16 bytes @ 0xE0001FF0) -- CPU_ReadMem(16 bytes @ 0xE0001FE0)ROMTbl[0][1]: E0001000, CID: B105E00D, PID: 003BB002 DWT -- CPU_ReadMem(16 bytes @ 0xE0002FF0) -- CPU_ReadMem(16 bytes @ 0xE0002FE0)ROMTbl[0][2]: E0002000, CID: B105E00D, PID: 002BB003 FPB -- CPU_ReadMem(16 bytes @ 0xE0000FF0)
 -- CPU_ReadMem(16 bytes @ 0xE0000FE0)ROMTbl[0][3]: E0000000, CID: B105E00D, PID: 003BB001 ITM -- CPU_ReadMem(16 bytes @ 0xE00FF010) -- CPU_ReadMem(16 bytes @ 0xE0040FF0) -- CPU_ReadMem(16 bytes @ 0xE0040FE0)ROMTbl[0][4]: E0040000, CID: B105900D, PID: 000BB9A1 TPIU -- CPU_ReadMem(16 bytes @ 0xE0041FF0) -- CPU_ReadMem(16 bytes @ 0xE0041FE0)ROMTbl[0][5]: E0041000, CID: 00000000, PID: 00000000 ??? >0x0D TIF> >0x21 TIF>  returns 0x2BA01477 (0140ms, 3442ms total)
T3CA0 3148:571 JLINK_GetDLLVersion()  returns 64600 (0000ms, 3442ms total)
T3CA0 3148:571 JLINK_CORE_GetFound()  returns 0xE0000FF (0000ms, 3442ms total)
T3CA0 3148:571 JLINK_GetDebugInfo(0x100 = JLINKARM_ROM_TABLE_ADDR_INDEX) -- Value=0xE00FF000  returns 0x00 (0000ms, 3442ms total)
T3CA0 3148:571 JLINK_GetDebugInfo(0x100 = JLINKARM_ROM_TABLE_ADDR_INDEX) -- Value=0xE00FF000  returns 0x00 (0000ms, 3442ms total)
T3CA0 3148:571 JLINK_GetDebugInfo(0x101 = JLINKARM_DEBUG_INFO_ETM_ADDR_INDEX) -- Value=0x00000000  returns 0x00 (0000ms, 3442ms total)
T3CA0 3148:571 JLINK_ReadMemEx(0xE0041FF0, 0x0010 Bytes, ..., Flags = 0x02000004) -- CPU_ReadMem(16 bytes @ 0xE0041FF0) - Data: 00 00 00 00 00 00 00 00 00 00 00 00 00 00 00 00  returns 0x10 (0000ms, 3442ms total)
T3CA0 3148:571 JLINK_GetDebugInfo(0x102 = JLINKARM_DEBUG_INFO_MTB_ADDR_INDEX) -- Value=0x00000000  returns 0x00 (0000ms, 3442ms total)
T3CA0 3148:571 JLINK_GetDebugInfo(0x103 = JLINKARM_DEBUG_INFO_TPIU_ADDR_INDEX) -- Value=0xE0040000  returns 0x00 (0000ms, 3442ms total)
T3CA0 3148:571 JLINK_GetDebugInfo(0x104 = JLINKARM_DEBUG_INFO_ITM_ADDR_INDEX) -- Value=0xE0000000  returns 0x00 (0000ms, 3442ms total)
T3CA0 3148:571 JLINK_GetDebugInfo(0x105 = JLINKARM_DEBUG_INFO_DWT_ADDR_INDEX) -- Value=0xE0001000  returns 0x00 (0000ms, 3442ms total)
T3CA0 3148:571 JLINK_GetDebugInfo(0x106 = JLINKARM_DEBUG_INFO_FPB_ADDR_INDEX) -- Value=0xE0002000  returns 0x00 (0000ms, 3442ms total)
T3CA0 3148:571 JLINK_GetDebugInfo(0x107 = JLINKARM_DEBUG_INFO_NVIC_ADDR_INDEX) -- Value=0xE000E000  returns 0x00 (0001ms, 3443ms total)
T3CA0 3148:572 JLINK_GetDebugInfo(0x10C = JLINKARM_DEBUG_INFO_DBG_ADDR_INDEX) -- Value=0xE000EDF0  returns 0x00 (0000ms, 3443ms total)
T3CA0 3148:572 JLINK_GetDebugInfo(0x01 = Unknown) -- Value=0x00000001  returns 0x00 (0000ms, 3443ms total)
T3CA0 3148:572 JLINK_ReadMemU32(0xE000ED00, 0x0001 Items, ...) -- CPU_ReadMem(4 bytes @ 0xE000ED00) - Data: 41 C2 0F 41  returns 1 (0000ms, 3443ms total)
T3CA0 3148:572 JLINK_GetDebugInfo(0x10F = JLINKARM_DEBUG_INFO_HAS_CORTEX_M_SECURITY_EXT_INDEX) -- Value=0x00000000  returns 0x00 (0000ms, 3443ms total)
T3CA0 3148:572 JLINK_SetResetType(JLINKARM_CM3_RESET_TYPE_NORMAL)  returns JLINKARM_CM3_RESET_TYPE_NORMAL (0000ms, 3443ms total)
T3CA0 3148:572 JLINK_Reset() -- CPU is running -- CPU_WriteMem(4 bytes @ 0xE000EDF0) -- CPU is running -- CPU_WriteMem(4 bytes @ 0xE000EDFC)Reset: Halt core after reset via DEMCR.VC_CORERESET. >0x35 TIF>Reset: Reset device via AIRCR.SYSRESETREQ. -- CPU is running -- CPU_WriteMem(4 bytes @ 0xE000ED0C) >0x0D TIF> >0x28 TIF> -- CPU_ReadMem(4 bytes @ 0xE000EDF0) -- CPU_ReadMem(4 bytes @ 0xE000EDF0) -- CPU is running -- CPU_WriteMem(4 bytes @ 0xE000EDF0) -- CPU is running -- CPU_WriteMem(4 bytes @ 0xE000EDFC)
 -- CPU_ReadMem(4 bytes @ 0xE000EDF0) -- CPU_WriteMem(4 bytes @ 0xE0002000) -- CPU_ReadMem(4 bytes @ 0xE000EDFC) -- CPU_ReadMem(4 bytes @ 0xE0001000) (0067ms, 3510ms total)
T3CA0 3148:639 JLINK_ReadReg(R15 (PC))  returns 0x08000164 (0000ms, 3510ms total)
T3CA0 3148:639 JLINK_ReadReg(XPSR)  returns 0x01000000 (0000ms, 3510ms total)
T3CA0 3148:639 JLINK_Halt()  returns 0x00 (0000ms, 3510ms total)
T3CA0 3148:639 JLINK_ReadMemU32(0xE000EDF0, 0x0001 Items, ...) -- CPU_ReadMem(4 bytes @ 0xE000EDF0) - Data: 03 00 03 00  returns 1 (0000ms, 3510ms total)
T3CA0 3148:639 JLINK_WriteU32(0xE000EDF0, 0xA05F0003) -- CPU_WriteMem(4 bytes @ 0xE000EDF0)  returns 0 (0000ms, 3510ms total)
T3CA0 3148:639 JLINK_WriteU32(0xE000EDFC, 0x01000000) -- CPU_WriteMem(4 bytes @ 0xE000EDFC)  returns 0 (0001ms, 3511ms total)
T3CA0 3148:640 JLINK_GetHWStatus(...)  returns 0x00 (0000ms, 3511ms total)
T3CA0 3148:640 JLINK_GetNumBPUnits(Type = 0xFFFFFF00)  returns 0x06 (0000ms, 3511ms total)
T3CA0 3148:640 JLINK_GetNumBPUnits(Type = 0xF0)  returns 0x2000 (0000ms, 3511ms total)
T3CA0 3148:640 JLINK_GetNumWPUnits()  returns 0x04 (0000ms, 3511ms total)
T3CA0 3148:640 JLINK_GetSpeed()  returns 0x2EE0 (0000ms, 3511ms total)
T3CA0 3148:640 JLINK_ReadMemU32(0xE000E004, 0x0001 Items, ...) -- CPU_ReadMem(4 bytes @ 0xE000E004) - Data: 02 00 00 00  returns 1 (0001ms, 3512ms total)
T3CA0 3148:641 JLINK_ReadMemU32(0xE000E004, 0x0001 Items, ...) -- CPU_ReadMem(4 bytes @ 0xE000E004) - Data: 02 00 00 00  returns 1 (0001ms, 3513ms total)
T3CA0 3148:642 JLINK_WriteMemEx(0xE0001000, 0x001C Bytes, ..., Flags = 0x02000004) - Data: 01 00 00 00 00 00 00 00 00 00 00 00 00 00 00 00 ... -- CPU_WriteMem(28 bytes @ 0xE0001000)  returns 0x1C (0000ms, 3513ms total)
T3CA0 3148:642 JLINK_ReadReg(R15 (PC))  returns 0x08000164 (0000ms, 3513ms total)
T3CA0 3148:642 JLINK_ReadReg(XPSR)  returns 0x01000000 (0000ms, 3513ms total)
T3CA0 3148:645 JLINK_ReadMemEx(0xE0001004, 0x0004 Bytes, ..., Flags = 0x02000000) - Data: 00 00 00 00  returns 0x04 (0000ms, 3513ms total)
T3CA0 3148:713 JLINK_SetResetType(JLINKARM_CM3_RESET_TYPE_NORMAL)  returns JLINKARM_CM3_RESET_TYPE_NORMAL (0000ms, 3513ms total)
T3CA0 3148:713 JLINK_Reset() -- CPU_WriteMem(4 bytes @ 0xE000EDF0) -- CPU_WriteMem(4 bytes @ 0xE000EDFC)Reset: Halt core after reset via DEMCR.VC_CORERESET. >0x35 TIF>Reset: Reset device via AIRCR.SYSRESETREQ. -- CPU_WriteMem(4 bytes @ 0xE000ED0C) >0x0D TIF> >0x28 TIF> -- CPU_ReadMem(4 bytes @ 0xE000EDF0) -- CPU_ReadMem(4 bytes @ 0xE000EDF0) -- CPU_WriteMem(4 bytes @ 0xE000EDF0) -- CPU_WriteMem(4 bytes @ 0xE000EDFC) -- CPU_ReadMem(4 bytes @ 0xE000EDF0) -- CPU_WriteMem(4 bytes @ 0xE0002000)
 -- CPU_ReadMem(4 bytes @ 0xE000EDFC) -- CPU_ReadMem(4 bytes @ 0xE0001000) (0068ms, 3581ms total)
T3CA0 3148:781 JLINK_ReadReg(R15 (PC))  returns 0x08000164 (0000ms, 3581ms total)
T3CA0 3148:781 JLINK_ReadReg(XPSR)  returns 0x01000000 (0000ms, 3581ms total)
T3CA0 3148:781 JLINK_ReadMemEx(0x08000164, 0x003C Bytes, ..., Flags = 0x02000000) -- CPU_ReadMem(128 bytes @ 0x08000140) -- Updating C cache (128 bytes @ 0x08000140) -- Read from C cache (60 bytes @ 0x08000164) - Data: 06 48 80 47 06 48 00 47 FE E7 FE E7 FE E7 FE E7 ...  returns 0x3C (0001ms, 3582ms total)
T3CA0 3148:782 JLINK_ReadMemEx(0x08000164, 0x0002 Bytes, ..., Flags = 0x02000000) -- Read from C cache (2 bytes @ 0x08000164) - Data: 06 48  returns 0x02 (0000ms, 3582ms total)
T3CA0 3148:782 JLINK_ReadMemEx(0x08000166, 0x0002 Bytes, ..., Flags = 0x02000000) -- Read from C cache (2 bytes @ 0x08000166) - Data: 80 47  returns 0x02 (0000ms, 3582ms total)
T3CA0 3148:782 JLINK_ReadMemEx(0x08000166, 0x0002 Bytes, ..., Flags = 0x02000000) -- Read from C cache (2 bytes @ 0x08000166) - Data: 80 47  returns 0x02 (0000ms, 3582ms total)
T3CA0 3148:782 JLINK_ReadMemEx(0x08000168, 0x003C Bytes, ..., Flags = 0x02000000) -- Read from C cache (60 bytes @ 0x08000168) - Data: 06 48 00 47 FE E7 FE E7 FE E7 FE E7 FE E7 FE E7 ...  returns 0x3C (0000ms, 3582ms total)
T3CA0 3148:782 JLINK_ReadMemEx(0x08000168, 0x0002 Bytes, ..., Flags = 0x02000000) -- Read from C cache (2 bytes @ 0x08000168) - Data: 06 48  returns 0x02 (0001ms, 3583ms total)
T3CA0 3148:783 JLINK_ReadMemEx(0x08000168, 0x003C Bytes, ..., Flags = 0x02000000) -- Read from C cache (60 bytes @ 0x08000168) - Data: 06 48 00 47 FE E7 FE E7 FE E7 FE E7 FE E7 FE E7 ...  returns 0x3C (0000ms, 3583ms total)
T3CA0 3148:783 JLINK_ReadMemEx(0x08000168, 0x0002 Bytes, ..., Flags = 0x02000000) -- Read from C cache (2 bytes @ 0x08000168) - Data: 06 48  returns 0x02 (0000ms, 3583ms total)
T3CA0 3148:783 JLINK_ReadMemEx(0x0800016A, 0x0002 Bytes, ..., Flags = 0x02000000) -- Read from C cache (2 bytes @ 0x0800016A) - Data: 00 47  returns 0x02 (0000ms, 3583ms total)
T3CA0 3148:783 JLINK_ReadMemEx(0x0800016A, 0x0002 Bytes, ..., Flags = 0x02000000) -- Read from C cache (2 bytes @ 0x0800016A) - Data: 00 47  returns 0x02 (0000ms, 3583ms total)
T3CA0 3148:783 JLINK_ReadMemEx(0x0800016C, 0x003C Bytes, ..., Flags = 0x02000000) -- Read from C cache (60 bytes @ 0x0800016C) - Data: FE E7 FE E7 FE E7 FE E7 FE E7 FE E7 FE E7 FE E7 ...  returns 0x3C (0000ms, 3583ms total)
T3CA0 3148:783 JLINK_ReadMemEx(0x0800016C, 0x0002 Bytes, ..., Flags = 0x02000000) -- Read from C cache (2 bytes @ 0x0800016C) - Data: FE E7  returns 0x02 (0000ms, 3583ms total)
T3CA0 3149:887 JLINK_ReadReg(R0)  returns 0x00000000 (0001ms, 3584ms total)
T3CA0 3149:888 JLINK_ReadReg(R1)  returns 0xA5A5A5A5 (0000ms, 3584ms total)
T3CA0 3149:888 JLINK_ReadReg(R2)  returns 0xA5A5A5A5 (0000ms, 3584ms total)
T3CA0 3149:888 JLINK_ReadReg(R3)  returns 0xA5A5A5A5 (0000ms, 3584ms total)
T3CA0 3149:888 JLINK_ReadReg(R4)  returns 0xA5A5A5A5 (0000ms, 3584ms total)
T3CA0 3149:888 JLINK_ReadReg(R5)  returns 0xA5A5A5A5 (0000ms, 3584ms total)
T3CA0 3149:888 JLINK_ReadReg(R6)  returns 0xA5A5A5A5 (0000ms, 3584ms total)
T3CA0 3149:888 JLINK_ReadReg(R7)  returns 0xA5A5A5A5 (0000ms, 3584ms total)
T3CA0 3149:888 JLINK_ReadReg(R8)  returns 0xA5A5A5A5 (0000ms, 3584ms total)
T3CA0 3149:888 JLINK_ReadReg(R9)  returns 0xA5A5A5A5 (0000ms, 3584ms total)
T3CA0 3149:888 JLINK_ReadReg(R10)  returns 0xA5A5A5A5 (0000ms, 3584ms total)
T3CA0 3149:888 JLINK_ReadReg(R11)  returns 0xA5A5A5A5 (0000ms, 3584ms total)
T3CA0 3149:888 JLINK_ReadReg(R12)  returns 0xA5A5A5A5 (0000ms, 3584ms total)
T3CA0 3149:888 JLINK_ReadReg(R13 (SP))  returns 0x20000408 (0000ms, 3584ms total)
T3CA0 3149:888 JLINK_ReadReg(R14)  returns 0xFFFFFFFF (0000ms, 3584ms total)
T3CA0 3149:888 JLINK_ReadReg(R15 (PC))  returns 0x08000164 (0000ms, 3584ms total)
T3CA0 3149:888 JLINK_ReadReg(XPSR)  returns 0x01000000 (0000ms, 3584ms total)
T3CA0 3149:888 JLINK_ReadReg(MSP)  returns 0x20000408 (0000ms, 3584ms total)
T3CA0 3149:888 JLINK_ReadReg(PSP)  returns 0x200014D8 (0000ms, 3584ms total)
T3CA0 3149:888 JLINK_ReadReg(CFBP)  returns 0x00000000 (0000ms, 3584ms total)
T3CA0 3149:888 JLINK_ReadReg(FPSCR)  returns 0x00000000 (0003ms, 3587ms total)
T3CA0 3149:891 JLINK_ReadReg(FPS0)  returns 0xA5140882 (0000ms, 3587ms total)
T3CA0 3149:891 JLINK_ReadReg(FPS1)  returns 0x83E885F8 (0000ms, 3587ms total)
T3CA0 3149:891 JLINK_ReadReg(FPS2)  returns 0x34A80620 (0000ms, 3587ms total)
T3CA0 3149:891 JLINK_ReadReg(FPS3)  returns 0x1819292E (0000ms, 3587ms total)
T3CA0 3149:891 JLINK_ReadReg(FPS4)  returns 0x0810C205 (0000ms, 3587ms total)
T3CA0 3149:891 JLINK_ReadReg(FPS5)  returns 0xBAB4A303 (0000ms, 3587ms total)
T3CA0 3149:891 JLINK_ReadReg(FPS6)  returns 0x1481AB16 (0000ms, 3587ms total)
T3CA0 3149:891 JLINK_ReadReg(FPS7)  returns 0x251CC067 (0000ms, 3587ms total)
T3CA0 3149:891 JLINK_ReadReg(FPS8)  returns 0x61BADA0B (0000ms, 3587ms total)
T3CA0 3149:891 JLINK_ReadReg(FPS9)  returns 0x96191526 (0000ms, 3587ms total)
T3CA0 3149:891 JLINK_ReadReg(FPS10)  returns 0x68029010 (0000ms, 3587ms total)
T3CA0 3149:891 JLINK_ReadReg(FPS11)  returns 0x04926304 (0000ms, 3587ms total)
T3CA0 3149:891 JLINK_ReadReg(FPS12)  returns 0xC395BB00 (0000ms, 3587ms total)
T3CA0 3149:891 JLINK_ReadReg(FPS13)  returns 0x83CD0111 (0000ms, 3587ms total)
T3CA0 3149:891 JLINK_ReadReg(FPS14)  returns 0x69C02305 (0000ms, 3587ms total)
T3CA0 3149:891 JLINK_ReadReg(FPS15)  returns 0x8200B182 (0000ms, 3587ms total)
T3CA0 3149:891 JLINK_ReadReg(FPS16)  returns 0xCC48146A (0000ms, 3587ms total)
T3CA0 3149:891 JLINK_ReadReg(FPS17)  returns 0x44206B94 (0000ms, 3587ms total)
T3CA0 3149:891 JLINK_ReadReg(FPS18)  returns 0x219CC332 (0000ms, 3587ms total)
T3CA0 3149:891 JLINK_ReadReg(FPS19)  returns 0xA22D9927 (0000ms, 3587ms total)
T3CA0 3149:891 JLINK_ReadReg(FPS20)  returns 0x3D113220 (0000ms, 3587ms total)
T3CA0 3149:891 JLINK_ReadReg(FPS21)  returns 0x88022189 (0000ms, 3587ms total)
T3CA0 3149:891 JLINK_ReadReg(FPS22)  returns 0xEE736064 (0000ms, 3587ms total)
T3CA0 3149:891 JLINK_ReadReg(FPS23)  returns 0xC000B038 (0000ms, 3587ms total)
T3CA0 3149:891 JLINK_ReadReg(FPS24)  returns 0x04C07348 (0000ms, 3587ms total)
T3CA0 3149:891 JLINK_ReadReg(FPS25)  returns 0x75895131 (0000ms, 3587ms total)
T3CA0 3149:891 JLINK_ReadReg(FPS26)  returns 0x3203E100 (0000ms, 3587ms total)
T3CA0 3149:891 JLINK_ReadReg(FPS27)  returns 0x11118412 (0000ms, 3587ms total)
T3CA0 3149:891 JLINK_ReadReg(FPS28)  returns 0x09578B21 (0000ms, 3587ms total)
T3CA0 3149:891 JLINK_ReadReg(FPS29)  returns 0x94219474 (0000ms, 3587ms total)
T3CA0 3149:891 JLINK_ReadReg(FPS30)  returns 0xCC280811 (0000ms, 3587ms total)
T3CA0 3149:891 JLINK_ReadReg(FPS31)  returns 0xA02007A3 (0000ms, 3587ms total)
T253C 3149:942 JLINK_ReadMemEx(0x08000164, 0x0002 Bytes, ..., Flags = 0x02000000) -- Read from C cache (2 bytes @ 0x08000164) - Data: 06 48  returns 0x02 (0000ms, 3587ms total)
T253C 3149:942 JLINK_SetBPEx(Addr = 0x080080D4, Type = 0xFFFFFFF2)  returns 0x00000001 (0000ms, 3587ms total)
T253C 3149:942 JLINK_SetBPEx(Addr = 0x08004E46, Type = 0xFFFFFFF2)  returns 0x00000002 (0000ms, 3587ms total)
T253C 3149:942 JLINK_Go() -- CPU_WriteMem(4 bytes @ 0xE0002000) -- CPU_WriteMem(4 bytes @ 0xE0002000) -- CPU_ReadMem(4 bytes @ 0xE0001000) -- CPU_WriteMem(4 bytes @ 0xE0002008) -- CPU_WriteMem(4 bytes @ 0xE000200C) -- CPU_WriteMem(4 bytes @ 0xE0002010) -- CPU_WriteMem(4 bytes @ 0xE0002014) -- CPU_WriteMem(4 bytes @ 0xE0002018) -- CPU_WriteMem(4 bytes @ 0xE000201C) -- CPU_WriteMem(4 bytes @ 0xE0001004) (0004ms, 3591ms total)
T253C 3150:047 JLINK_IsHalted()  returns TRUE (0002ms, 3593ms total)
T253C 3150:049 JLINK_Halt()  returns 0x00 (0000ms, 3591ms total)
T253C 3150:049 JLINK_IsHalted()  returns TRUE (0000ms, 3591ms total)
T253C 3150:049 JLINK_IsHalted()  returns TRUE (0000ms, 3591ms total)
T253C 3150:049 JLINK_IsHalted()  returns TRUE (0000ms, 3591ms total)
T253C 3150:049 JLINK_ReadReg(R15 (PC))  returns 0x080080D4 (0000ms, 3591ms total)
T253C 3150:049 JLINK_ReadReg(XPSR)  returns 0x61000000 (0000ms, 3591ms total)
T253C 3150:049 JLINK_ClrBPEx(BPHandle = 0x00000001)  returns 0x00 (0000ms, 3591ms total)
T253C 3150:049 JLINK_ClrBPEx(BPHandle = 0x00000002)  returns 0x00 (0000ms, 3591ms total)
T253C 3150:049 JLINK_ReadMemU32(0xE000ED30, 0x0001 Items, ...) -- CPU_ReadMem(4 bytes @ 0xE000ED30) - Data: 02 00 00 00  returns 1 (0001ms, 3592ms total)
T253C 3150:050 JLINK_ReadMemU32(0xE0001028, 0x0001 Items, ...) -- CPU_ReadMem(4 bytes @ 0xE0001028) - Data: 00 00 00 00  returns 1 (0000ms, 3592ms total)
T253C 3150:050 JLINK_ReadMemU32(0xE0001038, 0x0001 Items, ...) -- CPU_ReadMem(4 bytes @ 0xE0001038) - Data: 00 02 00 00  returns 1 (0001ms, 3593ms total)
T253C 3150:051 JLINK_ReadMemU32(0xE0001048, 0x0001 Items, ...) -- CPU_ReadMem(4 bytes @ 0xE0001048) - Data: 00 00 00 00  returns 1 (0001ms, 3594ms total)
T253C 3150:052 JLINK_ReadMemU32(0xE0001058, 0x0001 Items, ...) -- CPU_ReadMem(4 bytes @ 0xE0001058) - Data: 00 00 00 00  returns 1 (0001ms, 3595ms total)
T253C 3150:053 JLINK_ReadReg(R0)  returns 0x080080D5 (0000ms, 3595ms total)
T253C 3150:053 JLINK_ReadReg(R1)  returns 0x20004DC0 (0000ms, 3595ms total)
T253C 3150:053 JLINK_ReadReg(R2)  returns 0x00000000 (0000ms, 3595ms total)
T253C 3150:053 JLINK_ReadReg(R3)  returns 0x08006529 (0000ms, 3595ms total)
T253C 3150:053 JLINK_ReadReg(R4)  returns 0x0800ACC0 (0000ms, 3595ms total)
T253C 3150:053 JLINK_ReadReg(R5)  returns 0x0800ACC0 (0000ms, 3595ms total)
T253C 3150:053 JLINK_ReadReg(R6)  returns 0x00004000 (0000ms, 3595ms total)
T253C 3150:053 JLINK_ReadReg(R7)  returns 0xA5A5A5A5 (0000ms, 3595ms total)
T253C 3150:053 JLINK_ReadReg(R8)  returns 0xA5A5A5A5 (0000ms, 3595ms total)
T253C 3150:053 JLINK_ReadReg(R9)  returns 0xA5A5A5A5 (0000ms, 3595ms total)
T253C 3150:053 JLINK_ReadReg(R10)  returns 0xA5A5A5A5 (0000ms, 3595ms total)
T253C 3150:053 JLINK_ReadReg(R11)  returns 0xA5A5A5A5 (0000ms, 3595ms total)
T253C 3150:053 JLINK_ReadReg(R12)  returns 0x00010000 (0000ms, 3595ms total)
T253C 3150:053 JLINK_ReadReg(R13 (SP))  returns 0x20004DC0 (0000ms, 3595ms total)
T253C 3150:053 JLINK_ReadReg(R14)  returns 0x08004531 (0000ms, 3595ms total)
T253C 3150:053 JLINK_ReadReg(R15 (PC))  returns 0x080080D4 (0000ms, 3595ms total)
T253C 3150:053 JLINK_ReadReg(XPSR)  returns 0x61000000 (0001ms, 3596ms total)
T253C 3150:054 JLINK_ReadReg(MSP)  returns 0x20004DC0 (0000ms, 3596ms total)
T253C 3150:054 JLINK_ReadReg(PSP)  returns 0x200014D8 (0000ms, 3596ms total)
T253C 3150:054 JLINK_ReadReg(CFBP)  returns 0x00000001 (0000ms, 3596ms total)
T253C 3150:054 JLINK_ReadReg(FPSCR)  returns 0x00000000 (0002ms, 3598ms total)
T253C 3150:056 JLINK_ReadReg(FPS0)  returns 0xA5140882 (0000ms, 3598ms total)
T253C 3150:056 JLINK_ReadReg(FPS1)  returns 0x83E885F8 (0000ms, 3598ms total)
T253C 3150:056 JLINK_ReadReg(FPS2)  returns 0x34A80620 (0000ms, 3598ms total)
T253C 3150:056 JLINK_ReadReg(FPS3)  returns 0x1819292E (0000ms, 3598ms total)
T253C 3150:056 JLINK_ReadReg(FPS4)  returns 0x0810C205 (0000ms, 3598ms total)
T253C 3150:056 JLINK_ReadReg(FPS5)  returns 0xBAB4A303 (0000ms, 3598ms total)
T253C 3150:056 JLINK_ReadReg(FPS6)  returns 0x1481AB16 (0000ms, 3598ms total)
T253C 3150:056 JLINK_ReadReg(FPS7)  returns 0x251CC067 (0000ms, 3598ms total)
T253C 3150:056 JLINK_ReadReg(FPS8)  returns 0x61BADA0B (0000ms, 3598ms total)
T253C 3150:056 JLINK_ReadReg(FPS9)  returns 0x96191526 (0000ms, 3598ms total)
T253C 3150:056 JLINK_ReadReg(FPS10)  returns 0x68029010 (0000ms, 3598ms total)
T253C 3150:056 JLINK_ReadReg(FPS11)  returns 0x04926304 (0000ms, 3598ms total)
T253C 3150:056 JLINK_ReadReg(FPS12)  returns 0xC395BB00 (0000ms, 3598ms total)
T253C 3150:056 JLINK_ReadReg(FPS13)  returns 0x83CD0111 (0000ms, 3598ms total)
T253C 3150:056 JLINK_ReadReg(FPS14)  returns 0x69C02305 (0000ms, 3598ms total)
T253C 3150:056 JLINK_ReadReg(FPS15)  returns 0x8200B182 (0000ms, 3598ms total)
T253C 3150:056 JLINK_ReadReg(FPS16)  returns 0xCC48146A (0000ms, 3598ms total)
T253C 3150:056 JLINK_ReadReg(FPS17)  returns 0x44206B94 (0000ms, 3598ms total)
T253C 3150:056 JLINK_ReadReg(FPS18)  returns 0x219CC332 (0000ms, 3598ms total)
T253C 3150:056 JLINK_ReadReg(FPS19)  returns 0xA22D9927 (0000ms, 3598ms total)
T253C 3150:056 JLINK_ReadReg(FPS20)  returns 0x3D113220 (0000ms, 3598ms total)
T253C 3150:056 JLINK_ReadReg(FPS21)  returns 0x88022189 (0000ms, 3598ms total)
T253C 3150:056 JLINK_ReadReg(FPS22)  returns 0xEE736064 (0000ms, 3598ms total)
T253C 3150:056 JLINK_ReadReg(FPS23)  returns 0xC000B038 (0000ms, 3598ms total)
T253C 3150:056 JLINK_ReadReg(FPS24)  returns 0x04C07348 (0000ms, 3598ms total)
T253C 3150:056 JLINK_ReadReg(FPS25)  returns 0x75895131 (0000ms, 3598ms total)
T253C 3150:056 JLINK_ReadReg(FPS26)  returns 0x3203E100 (0000ms, 3598ms total)
T253C 3150:056 JLINK_ReadReg(FPS27)  returns 0x11118412 (0000ms, 3598ms total)
T253C 3150:056 JLINK_ReadReg(FPS28)  returns 0x09578B21 (0000ms, 3598ms total)
T253C 3150:056 JLINK_ReadReg(FPS29)  returns 0x94219474 (0000ms, 3598ms total)
T253C 3150:056 JLINK_ReadReg(FPS30)  returns 0xCC280811 (0000ms, 3598ms total)
T253C 3150:056 JLINK_ReadReg(FPS31)  returns 0xA02007A3 (0001ms, 3599ms total)
T3CA0 3150:060 JLINK_ReadMemEx(0x080080D4, 0x003C Bytes, ..., Flags = 0x02000000) -- CPU_ReadMem(128 bytes @ 0x080080C0) -- Updating C cache (128 bytes @ 0x080080C0) -- Read from C cache (60 bytes @ 0x080080D4) - Data: 1C B5 62 B6 4F F4 40 70 00 F0 A2 F8 03 22 00 21 ...  returns 0x3C (0001ms, 3600ms total)
T3CA0 3150:061 JLINK_ReadMemEx(0x080080D4, 0x0002 Bytes, ..., Flags = 0x02000000) -- Read from C cache (2 bytes @ 0x080080D4) - Data: 1C B5  returns 0x02 (0000ms, 3600ms total)
T3CA0 3150:061 JLINK_ReadMemEx(0x080080D6, 0x0002 Bytes, ..., Flags = 0x02000000) -- Read from C cache (2 bytes @ 0x080080D6) - Data: 62 B6  returns 0x02 (0000ms, 3600ms total)
T3CA0 3185:872 JLINK_SetResetType(JLINKARM_CM3_RESET_TYPE_NORMAL)  returns JLINKARM_CM3_RESET_TYPE_NORMAL (0000ms, 3600ms total)
T3CA0 3185:872 JLINK_Reset() -- CPU_WriteMem(4 bytes @ 0xE000EDF0) -- CPU_WriteMem(4 bytes @ 0xE000EDFC)Reset: Halt core after reset via DEMCR.VC_CORERESET. >0x35 TIF>Reset: Reset device via AIRCR.SYSRESETREQ. -- CPU_WriteMem(4 bytes @ 0xE000ED0C) >0x0D TIF> >0x28 TIF> -- CPU_ReadMem(4 bytes @ 0xE000EDF0) -- CPU_ReadMem(4 bytes @ 0xE000EDF0) -- CPU_WriteMem(4 bytes @ 0xE000EDF0) -- CPU_WriteMem(4 bytes @ 0xE000EDFC) -- CPU_ReadMem(4 bytes @ 0xE000EDF0) -- CPU_WriteMem(4 bytes @ 0xE0002000)
 -- CPU_ReadMem(4 bytes @ 0xE000EDFC) -- CPU_ReadMem(4 bytes @ 0xE0001000) (0070ms, 3670ms total)
T3CA0 3185:944 JLINK_ReadReg(R15 (PC))  returns 0x08000164 (0000ms, 3670ms total)
T3CA0 3185:944 JLINK_ReadReg(XPSR)  returns 0x01000000 (0000ms, 3670ms total)
T3CA0 3185:944 JLINK_ReadMemEx(0x08000164, 0x003C Bytes, ..., Flags = 0x02000000) -- CPU_ReadMem(128 bytes @ 0x08000140) -- Updating C cache (128 bytes @ 0x08000140) -- Read from C cache (60 bytes @ 0x08000164) - Data: 06 48 80 47 06 48 00 47 FE E7 FE E7 FE E7 FE E7 ...  returns 0x3C (0002ms, 3672ms total)
T3CA0 3185:946 JLINK_ReadMemEx(0x08000164, 0x0002 Bytes, ..., Flags = 0x02000000) -- Read from C cache (2 bytes @ 0x08000164) - Data: 06 48  returns 0x02 (0000ms, 3672ms total)
T3CA0 3185:946 JLINK_ReadMemEx(0x08000166, 0x0002 Bytes, ..., Flags = 0x02000000) -- Read from C cache (2 bytes @ 0x08000166) - Data: 80 47  returns 0x02 (0000ms, 3672ms total)
T3CA0 3185:946 JLINK_ReadMemEx(0x08000166, 0x0002 Bytes, ..., Flags = 0x02000000) -- Read from C cache (2 bytes @ 0x08000166) - Data: 80 47  returns 0x02 (0000ms, 3672ms total)
T3CA0 3185:946 JLINK_ReadMemEx(0x08000168, 0x003C Bytes, ..., Flags = 0x02000000) -- Read from C cache (60 bytes @ 0x08000168) - Data: 06 48 00 47 FE E7 FE E7 FE E7 FE E7 FE E7 FE E7 ...  returns 0x3C (0000ms, 3672ms total)
T3CA0 3185:946 JLINK_ReadMemEx(0x08000168, 0x0002 Bytes, ..., Flags = 0x02000000) -- Read from C cache (2 bytes @ 0x08000168) - Data: 06 48  returns 0x02 (0000ms, 3672ms total)
T3CA0 3185:946 JLINK_ReadMemEx(0x08000168, 0x003C Bytes, ..., Flags = 0x02000000) -- Read from C cache (60 bytes @ 0x08000168) - Data: 06 48 00 47 FE E7 FE E7 FE E7 FE E7 FE E7 FE E7 ...  returns 0x3C (0000ms, 3672ms total)
T3CA0 3185:946 JLINK_ReadMemEx(0x08000168, 0x0002 Bytes, ..., Flags = 0x02000000) -- Read from C cache (2 bytes @ 0x08000168) - Data: 06 48  returns 0x02 (0000ms, 3672ms total)
T3CA0 3185:946 JLINK_ReadMemEx(0x0800016A, 0x0002 Bytes, ..., Flags = 0x02000000) -- Read from C cache (2 bytes @ 0x0800016A) - Data: 00 47  returns 0x02 (0000ms, 3672ms total)
T3CA0 3185:947 JLINK_ReadMemEx(0x0800016A, 0x0002 Bytes, ..., Flags = 0x02000000) -- Read from C cache (2 bytes @ 0x0800016A) - Data: 00 47  returns 0x02 (0000ms, 3672ms total)
T3CA0 3185:947 JLINK_ReadMemEx(0x0800016C, 0x003C Bytes, ..., Flags = 0x02000000) -- Read from C cache (60 bytes @ 0x0800016C) - Data: FE E7 FE E7 FE E7 FE E7 FE E7 FE E7 FE E7 FE E7 ...  returns 0x3C (0000ms, 3672ms total)
T3CA0 3185:947 JLINK_ReadMemEx(0x0800016C, 0x0002 Bytes, ..., Flags = 0x02000000) -- Read from C cache (2 bytes @ 0x0800016C) - Data: FE E7  returns 0x02 (0000ms, 3672ms total)
T3CA0 3185:973 JLINK_ReadReg(R0)  returns 0x080080D5 (0000ms, 3672ms total)
T3CA0 3185:973 JLINK_ReadReg(R1)  returns 0x20004DC0 (0000ms, 3672ms total)
T3CA0 3185:973 JLINK_ReadReg(R2)  returns 0x00000000 (0000ms, 3672ms total)
T3CA0 3185:973 JLINK_ReadReg(R3)  returns 0x08006529 (0000ms, 3672ms total)
T3CA0 3185:973 JLINK_ReadReg(R4)  returns 0x0800ACC0 (0000ms, 3672ms total)
T3CA0 3185:973 JLINK_ReadReg(R5)  returns 0x0800ACC0 (0000ms, 3672ms total)
T3CA0 3185:973 JLINK_ReadReg(R6)  returns 0x00004000 (0000ms, 3672ms total)
T3CA0 3185:973 JLINK_ReadReg(R7)  returns 0xA5A5A5A5 (0000ms, 3672ms total)
T3CA0 3185:973 JLINK_ReadReg(R8)  returns 0xA5A5A5A5 (0000ms, 3672ms total)
T3CA0 3185:973 JLINK_ReadReg(R9)  returns 0xA5A5A5A5 (0000ms, 3672ms total)
T3CA0 3185:973 JLINK_ReadReg(R10)  returns 0xA5A5A5A5 (0000ms, 3672ms total)
T3CA0 3185:973 JLINK_ReadReg(R11)  returns 0xA5A5A5A5 (0000ms, 3672ms total)
T3CA0 3185:973 JLINK_ReadReg(R12)  returns 0x00010000 (0000ms, 3672ms total)
T3CA0 3185:973 JLINK_ReadReg(R13 (SP))  returns 0x20000408 (0000ms, 3672ms total)
T3CA0 3185:973 JLINK_ReadReg(R14)  returns 0xFFFFFFFF (0000ms, 3672ms total)
T3CA0 3185:973 JLINK_ReadReg(R15 (PC))  returns 0x08000164 (0000ms, 3672ms total)
T3CA0 3185:973 JLINK_ReadReg(XPSR)  returns 0x01000000 (0000ms, 3672ms total)
T3CA0 3185:973 JLINK_ReadReg(MSP)  returns 0x20000408 (0000ms, 3672ms total)
T3CA0 3185:973 JLINK_ReadReg(PSP)  returns 0x200014D8 (0000ms, 3672ms total)
T3CA0 3185:973 JLINK_ReadReg(CFBP)  returns 0x00000000 (0000ms, 3672ms total)
T3CA0 3185:973 JLINK_ReadReg(FPSCR)  returns 0x00000000 (0004ms, 3676ms total)
T3CA0 3185:977 JLINK_ReadReg(FPS0)  returns 0xA5140882 (0000ms, 3676ms total)
T3CA0 3185:977 JLINK_ReadReg(FPS1)  returns 0x83E885F8 (0000ms, 3676ms total)
T3CA0 3185:977 JLINK_ReadReg(FPS2)  returns 0x34A80620 (0000ms, 3676ms total)
T3CA0 3185:977 JLINK_ReadReg(FPS3)  returns 0x1819292E (0000ms, 3676ms total)
T3CA0 3185:977 JLINK_ReadReg(FPS4)  returns 0x0810C205 (0000ms, 3676ms total)
T3CA0 3185:977 JLINK_ReadReg(FPS5)  returns 0xBAB4A303 (0000ms, 3676ms total)
T3CA0 3185:977 JLINK_ReadReg(FPS6)  returns 0x1481AB16 (0001ms, 3677ms total)
T3CA0 3185:978 JLINK_ReadReg(FPS7)  returns 0x251CC067 (0000ms, 3677ms total)
T3CA0 3185:978 JLINK_ReadReg(FPS8)  returns 0x61BADA0B (0000ms, 3677ms total)
T3CA0 3185:978 JLINK_ReadReg(FPS9)  returns 0x96191526 (0000ms, 3677ms total)
T3CA0 3185:978 JLINK_ReadReg(FPS10)  returns 0x68029010 (0000ms, 3677ms total)
T3CA0 3185:978 JLINK_ReadReg(FPS11)  returns 0x04926304 (0000ms, 3677ms total)
T3CA0 3185:978 JLINK_ReadReg(FPS12)  returns 0xC395BB00 (0000ms, 3677ms total)
T3CA0 3185:978 JLINK_ReadReg(FPS13)  returns 0x83CD0111 (0000ms, 3677ms total)
T3CA0 3185:978 JLINK_ReadReg(FPS14)  returns 0x69C02305 (0000ms, 3677ms total)
T3CA0 3185:978 JLINK_ReadReg(FPS15)  returns 0x8200B182 (0000ms, 3677ms total)
T3CA0 3185:978 JLINK_ReadReg(FPS16)  returns 0xCC48146A (0000ms, 3677ms total)
T3CA0 3185:978 JLINK_ReadReg(FPS17)  returns 0x44206B94 (0000ms, 3677ms total)
T3CA0 3185:978 JLINK_ReadReg(FPS18)  returns 0x219CC332 (0000ms, 3677ms total)
T3CA0 3185:978 JLINK_ReadReg(FPS19)  returns 0xA22D9927 (0000ms, 3677ms total)
T3CA0 3185:978 JLINK_ReadReg(FPS20)  returns 0x3D113220 (0000ms, 3677ms total)
T3CA0 3185:978 JLINK_ReadReg(FPS21)  returns 0x88022189 (0000ms, 3677ms total)
T3CA0 3185:978 JLINK_ReadReg(FPS22)  returns 0xEE736064 (0000ms, 3677ms total)
T3CA0 3185:978 JLINK_ReadReg(FPS23)  returns 0xC000B038 (0000ms, 3677ms total)
T3CA0 3185:978 JLINK_ReadReg(FPS24)  returns 0x04C07348 (0000ms, 3677ms total)
T3CA0 3185:978 JLINK_ReadReg(FPS25)  returns 0x75895131 (0000ms, 3677ms total)
T3CA0 3185:978 JLINK_ReadReg(FPS26)  returns 0x3203E100 (0000ms, 3677ms total)
T3CA0 3185:978 JLINK_ReadReg(FPS27)  returns 0x11118412 (0000ms, 3677ms total)
T3CA0 3185:978 JLINK_ReadReg(FPS28)  returns 0x09578B21 (0000ms, 3677ms total)
T3CA0 3185:978 JLINK_ReadReg(FPS29)  returns 0x94219474 (0000ms, 3677ms total)
T3CA0 3185:978 JLINK_ReadReg(FPS30)  returns 0xCC280811 (0000ms, 3677ms total)
T3CA0 3185:978 JLINK_ReadReg(FPS31)  returns 0xA02007A3 (0000ms, 3677ms total)
T253C 3187:433 JLINK_ReadMemEx(0x08000164, 0x0002 Bytes, ..., Flags = 0x02000000) -- Read from C cache (2 bytes @ 0x08000164) - Data: 06 48  returns 0x02 (0000ms, 3677ms total)
T253C 3187:433 JLINK_SetBPEx(Addr = 0x08004E46, Type = 0xFFFFFFF2)  returns 0x00000003 (0000ms, 3677ms total)
T253C 3187:433 JLINK_SetBPEx(Addr = 0x0800914A, Type = 0xFFFFFFF2)  returns 0x00000004 (0000ms, 3677ms total)
T253C 3187:433 JLINK_Go() -- CPU_WriteMem(4 bytes @ 0xE0002000) -- CPU_WriteMem(4 bytes @ 0xE0002000) -- CPU_ReadMem(4 bytes @ 0xE0001000) -- CPU_WriteMem(4 bytes @ 0xE0002008) -- CPU_WriteMem(4 bytes @ 0xE000200C) -- CPU_WriteMem(4 bytes @ 0xE0002010) -- CPU_WriteMem(4 bytes @ 0xE0002014) -- CPU_WriteMem(4 bytes @ 0xE0002018) -- CPU_WriteMem(4 bytes @ 0xE000201C) -- CPU_WriteMem(4 bytes @ 0xE0001004) (0004ms, 3681ms total)
T253C 3187:538 JLINK_IsHalted()  returns FALSE (0000ms, 3681ms total)
T253C 3187:639 JLINK_IsHalted()  returns FALSE (0000ms, 3681ms total)
T253C 3187:740 JLINK_IsHalted()  returns FALSE (0000ms, 3681ms total)
T253C 3187:841 JLINK_IsHalted()  returns FALSE (0001ms, 3682ms total)
T253C 3187:943 JLINK_IsHalted()  returns FALSE (0001ms, 3682ms total)
T253C 3188:044 JLINK_ReadMemU32(0xE0001004, 0x0001 Items, ...) -- CPU_ReadMem(4 bytes @ 0xE0001004) - Data: 90 FE E6 03  returns 1 (0001ms, 3682ms total)
T253C 3188:051 JLINK_IsHalted()  returns FALSE (0001ms, 3683ms total)
T253C 3188:152 JLINK_IsHalted()  returns FALSE (0002ms, 3684ms total)
T253C 3188:254 JLINK_IsHalted()  returns FALSE (0000ms, 3682ms total)
T253C 3188:355 JLINK_IsHalted()  returns FALSE (0000ms, 3682ms total)
T253C 3188:455 JLINK_IsHalted()  returns FALSE (0000ms, 3682ms total)
T253C 3188:556 JLINK_IsHalted()  returns FALSE (0000ms, 3682ms total)
T253C 3188:657 JLINK_ReadMemU32(0xE0001004, 0x0001 Items, ...) - Data: 90 FE E6 03  returns 1 (0000ms, 3682ms total)
T253C 3188:659 JLINK_IsHalted()  returns FALSE (0000ms, 3682ms total)
T253C 3188:760 JLINK_IsHalted()  returns FALSE (0001ms, 3683ms total)
T253C 3188:862 JLINK_IsHalted()  returns FALSE (0000ms, 3682ms total)
T253C 3188:963 JLINK_IsHalted()  returns FALSE (0001ms, 3683ms total)
T253C 3189:064 JLINK_IsHalted()  returns FALSE (0000ms, 3682ms total)
T253C 3189:165 JLINK_IsHalted()  returns FALSE (0000ms, 3682ms total)
T253C 3189:266 JLINK_ReadMemU32(0xE0001004, 0x0001 Items, ...) - Data: 90 FE E6 03  returns 1 (0000ms, 3682ms total)
T253C 3189:267 JLINK_IsHalted()  returns FALSE (0000ms, 3682ms total)
T253C 3189:368 JLINK_IsHalted()  returns FALSE (0001ms, 3683ms total)
T253C 3189:469 JLINK_IsHalted()  returns FALSE (0001ms, 3683ms total)
T253C 3189:571 JLINK_IsHalted()  returns FALSE (0000ms, 3682ms total)
T253C 3189:672 JLINK_IsHalted()  returns FALSE (0001ms, 3683ms total)
T253C 3189:773 JLINK_IsHalted()  returns FALSE (0001ms, 3683ms total)
T3CA0 3189:815 JLINK_ClrBPEx(BPHandle = 0x00000003) -- CPU is running -- CPU is running -- CPU_WriteMem(4 bytes @ 0xE0002000) -- CPU is running -- CPU_WriteMem(4 bytes @ 0xE000200C) -- CPU is running -- CPU_WriteMem(4 bytes @ 0xE0002008) -- CPU is running -- CPU_WriteMem(4 bytes @ 0xE0002008) -- CPU is running -- CPU_WriteMem(4 bytes @ 0xE000200C) -- CPU is running -- CPU_WriteMem(4 bytes @ 0xE0002010) -- CPU is running -- CPU_WriteMem(4 bytes @ 0xE0002014) -- CPU is running
 -- CPU_WriteMem(4 bytes @ 0xE0002018) -- CPU is running -- CPU_WriteMem(4 bytes @ 0xE000201C)  returns 0x00 (0007ms, 3689ms total)
T3CA0 3189:822 JLINK_ClrBPEx(BPHandle = 0x00000004) -- CPU is running -- CPU is running -- CPU_WriteMem(4 bytes @ 0xE0002008) -- CPU is running -- CPU_WriteMem(4 bytes @ 0xE000200C) -- CPU is running -- CPU_WriteMem(4 bytes @ 0xE0002010) -- CPU is running -- CPU_WriteMem(4 bytes @ 0xE0002014) -- CPU is running -- CPU_WriteMem(4 bytes @ 0xE0002018) -- CPU is running -- CPU_WriteMem(4 bytes @ 0xE000201C)  returns 0x00 (0003ms, 3692ms total)
T253C 3189:874 JLINK_ReadMemU32(0xE0001004, 0x0001 Items, ...) - Data: 90 FE E6 03  returns 1 (0000ms, 3692ms total)
T253C 3189:875 JLINK_IsHalted()  returns FALSE (0001ms, 3693ms total)
T253C 3189:976 JLINK_IsHalted()  returns FALSE (0000ms, 3692ms total)
T253C 3190:077 JLINK_IsHalted()  returns FALSE (0000ms, 3692ms total)
T253C 3190:178 JLINK_IsHalted()  returns FALSE (0000ms, 3692ms total)
T253C 3190:279 JLINK_IsHalted()  returns FALSE (0000ms, 3692ms total)
T253C 3190:380 JLINK_IsHalted()  returns FALSE (0001ms, 3693ms total)
T253C 3190:482 JLINK_ReadMemU32(0xE0001004, 0x0001 Items, ...) - Data: 90 FE E6 03  returns 1 (0000ms, 3692ms total)
T253C 3190:482 JLINK_IsHalted()  returns FALSE (0001ms, 3693ms total)
T253C 3190:584 JLINK_IsHalted()  returns FALSE (0000ms, 3692ms total)
T253C 3190:685 JLINK_IsHalted()  returns FALSE (0001ms, 3693ms total)
T253C 3190:786 JLINK_IsHalted()  returns FALSE (0001ms, 3693ms total)
T3CA0 3190:886 JLINK_SetBPEx(Addr = 0x0800914A, Type = 0xFFFFFFF2) -- CPU is running -- CPU is running -- CPU_WriteMem(4 bytes @ 0xE0002000) -- CPU is running -- CPU_WriteMem(4 bytes @ 0xE0002008)  returns 0x00000005 (0001ms, 3693ms total)
T253C 3190:887 JLINK_IsHalted()  returns FALSE (0001ms, 3694ms total)
T253C 3190:989 JLINK_IsHalted()  returns FALSE (0001ms, 3694ms total)
T253C 3191:090 JLINK_ReadMemU32(0xE0001004, 0x0001 Items, ...) - Data: 90 FE E6 03  returns 1 (0000ms, 3693ms total)
T253C 3191:095 JLINK_IsHalted()  returns FALSE (0001ms, 3694ms total)
T253C 3191:197 JLINK_IsHalted()  returns FALSE (0000ms, 3693ms total)
T253C 3191:298 JLINK_IsHalted()  returns FALSE (0001ms, 3694ms total)
T253C 3191:399 JLINK_IsHalted()  returns FALSE (0001ms, 3694ms total)
T253C 3191:500 JLINK_IsHalted()  returns FALSE (0001ms, 3694ms total)
T253C 3191:601 JLINK_IsHalted()  returns FALSE (0000ms, 3693ms total)
T253C 3191:702 JLINK_ReadMemU32(0xE0001004, 0x0001 Items, ...) - Data: 90 FE E6 03  returns 1 (0000ms, 3693ms total)
T253C 3191:708 JLINK_IsHalted()  returns FALSE (0001ms, 3694ms total)
T253C 3191:810 JLINK_IsHalted()  returns FALSE (0000ms, 3693ms total)
T253C 3191:911 JLINK_IsHalted()  returns FALSE (0000ms, 3693ms total)
T253C 3192:012 JLINK_IsHalted()  returns FALSE (0000ms, 3693ms total)
T253C 3192:113 JLINK_IsHalted()  returns FALSE (0001ms, 3694ms total)
T253C 3192:214 JLINK_ReadMemU32(0xE0001004, 0x0001 Items, ...) - Data: 90 FE E6 03  returns 1 (0000ms, 3693ms total)
T253C 3192:216 JLINK_IsHalted()  returns FALSE (0001ms, 3694ms total)
T253C 3192:318 JLINK_IsHalted()  returns FALSE (0001ms, 3694ms total)
T253C 3192:419 JLINK_IsHalted()  returns FALSE (0001ms, 3694ms total)
T253C 3192:521 JLINK_IsHalted()  returns FALSE (0000ms, 3693ms total)
T253C 3192:623 JLINK_IsHalted()  returns FALSE (0000ms, 3693ms total)
T253C 3192:724 JLINK_IsHalted()  returns FALSE (0000ms, 3693ms total)
T253C 3192:826 JLINK_ReadMemU32(0xE0001004, 0x0001 Items, ...) - Data: 90 FE E6 03  returns 1 (0000ms, 3693ms total)
T253C 3192:826 JLINK_IsHalted()  returns FALSE (0001ms, 3694ms total)
T253C 3192:928 JLINK_IsHalted()  returns FALSE (0000ms, 3693ms total)
T253C 3193:028 JLINK_IsHalted()  returns FALSE (0000ms, 3693ms total)
T253C 3193:130 JLINK_IsHalted()  returns FALSE (0000ms, 3693ms total)
T253C 3193:231 JLINK_IsHalted()  returns FALSE (0001ms, 3694ms total)
T253C 3193:332 JLINK_IsHalted()  returns FALSE (0000ms, 3693ms total)
T253C 3193:434 JLINK_ReadMemU32(0xE0001004, 0x0001 Items, ...) - Data: 90 FE E6 03  returns 1 (0000ms, 3693ms total)
T253C 3193:435 JLINK_IsHalted()  returns FALSE (0001ms, 3694ms total)
T253C 3193:536 JLINK_IsHalted()  returns FALSE (0000ms, 3693ms total)
T253C 3193:637 JLINK_IsHalted()  returns FALSE (0000ms, 3693ms total)
T253C 3193:738 JLINK_IsHalted()  returns FALSE (0000ms, 3693ms total)
T253C 3193:839 JLINK_IsHalted()  returns FALSE (0000ms, 3693ms total)
T253C 3193:940 JLINK_IsHalted()  returns FALSE (0000ms, 3693ms total)
T253C 3194:041 JLINK_ReadMemU32(0xE0001004, 0x0001 Items, ...) - Data: 90 FE E6 03  returns 1 (0000ms, 3693ms total)
T253C 3194:041 JLINK_IsHalted()  returns FALSE (0001ms, 3694ms total)
T253C 3194:143 JLINK_IsHalted()  returns FALSE (0001ms, 3694ms total)
T253C 3194:244 JLINK_IsHalted()  returns FALSE (0000ms, 3693ms total)
T253C 3194:345 JLINK_IsHalted()  returns FALSE (0002ms, 3695ms total)
T253C 3194:447 JLINK_IsHalted()  returns FALSE (0001ms, 3694ms total)
T253C 3194:549 JLINK_ReadMemU32(0xE0001004, 0x0001 Items, ...) - Data: 90 FE E6 03  returns 1 (0000ms, 3693ms total)
T253C 3194:552 JLINK_IsHalted()  returns FALSE (0001ms, 3694ms total)
T253C 3194:654 JLINK_IsHalted()  returns FALSE (0000ms, 3693ms total)
T253C 3194:754 JLINK_IsHalted()  returns FALSE (0000ms, 3693ms total)
T253C 3194:855 JLINK_IsHalted()  returns FALSE (0000ms, 3693ms total)
T253C 3194:957 JLINK_IsHalted()  returns FALSE (0000ms, 3693ms total)
T253C 3195:057 JLINK_ReadMemU32(0xE0001004, 0x0001 Items, ...) - Data: 90 FE E6 03  returns 1 (0000ms, 3693ms total)
T253C 3195:058 JLINK_IsHalted()  returns FALSE (0001ms, 3694ms total)
T253C 3195:159 JLINK_IsHalted()  returns FALSE (0001ms, 3694ms total)
T253C 3195:261 JLINK_IsHalted()  returns FALSE (0001ms, 3694ms total)
T253C 3195:363 JLINK_IsHalted()  returns FALSE (0000ms, 3693ms total)
T253C 3195:464 JLINK_IsHalted()  returns FALSE (0001ms, 3694ms total)
T253C 3195:565 JLINK_IsHalted()  returns FALSE (0000ms, 3693ms total)
T253C 3195:666 JLINK_ReadMemU32(0xE0001004, 0x0001 Items, ...) - Data: 90 FE E6 03  returns 1 (0000ms, 3693ms total)
T253C 3195:666 JLINK_IsHalted()  returns FALSE (0002ms, 3695ms total)
T253C 3195:768 JLINK_IsHalted()  returns FALSE (0000ms, 3693ms total)
T253C 3195:869 JLINK_IsHalted()  returns FALSE (0001ms, 3694ms total)
T253C 3195:971 JLINK_IsHalted()  returns FALSE (0000ms, 3693ms total)
T253C 3196:072 JLINK_IsHalted()  returns FALSE (0001ms, 3694ms total)
T253C 3196:174 JLINK_ReadMemU32(0xE0001004, 0x0001 Items, ...) - Data: 90 FE E6 03  returns 1 (0000ms, 3693ms total)
T253C 3196:177 JLINK_IsHalted()  returns FALSE (0001ms, 3694ms total)
T253C 3196:279 JLINK_IsHalted()  returns FALSE (0000ms, 3693ms total)
T253C 3196:380 JLINK_IsHalted()  returns FALSE (0001ms, 3694ms total)
T253C 3196:481 JLINK_IsHalted()  returns FALSE (0001ms, 3694ms total)
T253C 3196:583 JLINK_IsHalted()  returns FALSE (0000ms, 3693ms total)
T253C 3196:684 JLINK_ReadMemU32(0xE0001004, 0x0001 Items, ...) - Data: 90 FE E6 03  returns 1 (0000ms, 3693ms total)
T253C 3196:686 JLINK_IsHalted()  returns FALSE (0000ms, 3693ms total)
T253C 3196:787 JLINK_IsHalted()  returns FALSE (0001ms, 3694ms total)
T253C 3196:888 JLINK_IsHalted()  returns FALSE (0002ms, 3695ms total)
T253C 3196:990 JLINK_IsHalted()  returns FALSE (0001ms, 3694ms total)
T253C 3197:092 JLINK_IsHalted()  returns FALSE (0000ms, 3693ms total)
T253C 3197:192 JLINK_IsHalted()  returns FALSE (0001ms, 3694ms total)
T253C 3197:294 JLINK_ReadMemU32(0xE0001004, 0x0001 Items, ...) - Data: 90 FE E6 03  returns 1 (0000ms, 3693ms total)
T253C 3197:299 JLINK_IsHalted()  returns FALSE (0001ms, 3694ms total)
T253C 3197:401 JLINK_IsHalted()  returns FALSE (0001ms, 3694ms total)
T253C 3197:503 JLINK_IsHalted()  returns FALSE (0000ms, 3693ms total)
T253C 3197:604 JLINK_IsHalted()  returns FALSE (0000ms, 3693ms total)
T253C 3197:705 JLINK_IsHalted()  returns FALSE (0001ms, 3694ms total)
T253C 3197:806 JLINK_IsHalted()  returns FALSE (0000ms, 3693ms total)
T253C 3197:908 JLINK_ReadMemU32(0xE0001004, 0x0001 Items, ...) - Data: 90 FE E6 03  returns 1 (0000ms, 3693ms total)
T253C 3197:908 JLINK_IsHalted()  returns FALSE (0001ms, 3694ms total)
T253C 3198:010 JLINK_IsHalted()  returns FALSE (0000ms, 3693ms total)
T253C 3198:111 JLINK_IsHalted()  returns FALSE (0000ms, 3693ms total)
T253C 3198:212 JLINK_IsHalted()  returns FALSE (0000ms, 3693ms total)
T253C 3198:313 JLINK_IsHalted()  returns FALSE (0001ms, 3694ms total)
T253C 3198:415 JLINK_IsHalted()  returns FALSE (0000ms, 3693ms total)
T253C 3198:515 JLINK_ReadMemU32(0xE0001004, 0x0001 Items, ...) - Data: 90 FE E6 03  returns 1 (0000ms, 3693ms total)
T253C 3198:516 JLINK_IsHalted()  returns FALSE (0001ms, 3694ms total)
T253C 3198:617 JLINK_IsHalted()  returns FALSE (0000ms, 3693ms total)
T253C 3198:718 JLINK_IsHalted()  returns FALSE (0000ms, 3693ms total)
T253C 3198:819 JLINK_IsHalted()  returns FALSE (0000ms, 3693ms total)
T253C 3198:920 JLINK_IsHalted()  returns FALSE (0001ms, 3694ms total)
T253C 3199:021 JLINK_IsHalted()  returns FALSE (0001ms, 3694ms total)
T253C 3199:123 JLINK_ReadMemU32(0xE0001004, 0x0001 Items, ...) - Data: 90 FE E6 03  returns 1 (0000ms, 3693ms total)
T253C 3199:127 JLINK_IsHalted()  returns FALSE (0001ms, 3694ms total)
T253C 3199:229 JLINK_IsHalted()  returns FALSE (0000ms, 3693ms total)
T253C 3199:330 JLINK_IsHalted()  returns FALSE (0001ms, 3694ms total)
T253C 3199:432 JLINK_IsHalted()  returns FALSE (0001ms, 3694ms total)
T253C 3199:534 JLINK_IsHalted()  returns FALSE (0000ms, 3693ms total)
T253C 3199:635 JLINK_ReadMemU32(0xE0001004, 0x0001 Items, ...) - Data: 90 FE E6 03  returns 1 (0000ms, 3693ms total)
T253C 3199:637 JLINK_IsHalted()  returns FALSE (0001ms, 3694ms total)
T253C 3199:738 JLINK_IsHalted()  returns FALSE (0001ms, 3694ms total)
T253C 3199:840 JLINK_IsHalted()  returns FALSE (0000ms, 3693ms total)
T253C 3199:941 JLINK_IsHalted()  returns FALSE (0000ms, 3693ms total)
T253C 3200:042 JLINK_IsHalted()  returns FALSE (0000ms, 3693ms total)
T253C 3200:143 JLINK_IsHalted()  returns FALSE (0002ms, 3695ms total)
T253C 3200:245 JLINK_ReadMemU32(0xE0001004, 0x0001 Items, ...) - Data: 90 FE E6 03  returns 1 (0000ms, 3693ms total)
T253C 3200:248 JLINK_IsHalted()  returns FALSE (0000ms, 3693ms total)
T253C 3200:349 JLINK_IsHalted()  returns FALSE (0001ms, 3694ms total)
T253C 3200:451 JLINK_IsHalted()  returns FALSE (0000ms, 3693ms total)
T253C 3200:551 JLINK_IsHalted()  returns FALSE (0001ms, 3694ms total)
T253C 3200:652 JLINK_IsHalted()  returns TRUE (0002ms, 3695ms total)
T253C 3200:654 JLINK_Halt()  returns 0x00 (0000ms, 3693ms total)
T253C 3200:654 JLINK_IsHalted()  returns TRUE (0000ms, 3693ms total)
T253C 3200:654 JLINK_IsHalted()  returns TRUE (0000ms, 3693ms total)
T253C 3200:654 JLINK_IsHalted()  returns TRUE (0000ms, 3693ms total)
T253C 3200:654 JLINK_ReadReg(R15 (PC))  returns 0x0800914A (0000ms, 3693ms total)
T253C 3200:654 JLINK_ReadReg(XPSR)  returns 0x01000000 (0000ms, 3693ms total)
T253C 3200:654 JLINK_ClrBPEx(BPHandle = 0x00000005)  returns 0x00 (0000ms, 3693ms total)
T253C 3200:654 JLINK_ReadMemU32(0xE000ED30, 0x0001 Items, ...) -- CPU_ReadMem(4 bytes @ 0xE000ED30) - Data: 02 00 00 00  returns 1 (0001ms, 3694ms total)
T253C 3200:655 JLINK_ReadMemU32(0xE0001028, 0x0001 Items, ...) -- CPU_ReadMem(4 bytes @ 0xE0001028) - Data: 00 00 00 00  returns 1 (0001ms, 3695ms total)
T253C 3200:656 JLINK_ReadMemU32(0xE0001038, 0x0001 Items, ...) -- CPU_ReadMem(4 bytes @ 0xE0001038) - Data: 00 02 00 00  returns 1 (0000ms, 3695ms total)
T253C 3200:656 JLINK_ReadMemU32(0xE0001048, 0x0001 Items, ...) -- CPU_ReadMem(4 bytes @ 0xE0001048) - Data: 00 00 00 00  returns 1 (0001ms, 3696ms total)
T253C 3200:657 JLINK_ReadMemU32(0xE0001058, 0x0001 Items, ...) -- CPU_ReadMem(4 bytes @ 0xE0001058) - Data: 00 00 00 00  returns 1 (0001ms, 3697ms total)
T253C 3200:658 JLINK_ReadReg(R0)  returns 0x40020008 (0000ms, 3697ms total)
T253C 3200:658 JLINK_ReadReg(R1)  returns 0x00003092 (0000ms, 3697ms total)
T253C 3200:658 JLINK_ReadReg(R2)  returns 0x00000078 (0000ms, 3697ms total)
T253C 3200:658 JLINK_ReadReg(R3)  returns 0x40020400 (0000ms, 3697ms total)
T253C 3200:658 JLINK_ReadReg(R4)  returns 0x20000A60 (0000ms, 3697ms total)
T253C 3200:658 JLINK_ReadReg(R5)  returns 0x0000001C (0000ms, 3697ms total)
T253C 3200:658 JLINK_ReadReg(R6)  returns 0x00000000 (0000ms, 3697ms total)
T253C 3200:658 JLINK_ReadReg(R7)  returns 0xA5A5A5A5 (0000ms, 3697ms total)
T253C 3200:658 JLINK_ReadReg(R8)  returns 0xA5A5A5A5 (0000ms, 3697ms total)
T253C 3200:658 JLINK_ReadReg(R9)  returns 0xA5A5A5A5 (0000ms, 3697ms total)
T253C 3200:658 JLINK_ReadReg(R10)  returns 0xA5A5A5A5 (0000ms, 3697ms total)
T253C 3200:658 JLINK_ReadReg(R11)  returns 0xA5A5A5A5 (0000ms, 3697ms total)
T253C 3200:658 JLINK_ReadReg(R12)  returns 0xA5A5A5A5 (0000ms, 3697ms total)
T253C 3200:658 JLINK_ReadReg(R13 (SP))  returns 0x20003048 (0000ms, 3697ms total)
T253C 3200:658 JLINK_ReadReg(R14)  returns 0x080071EF (0000ms, 3697ms total)
T253C 3200:658 JLINK_ReadReg(R15 (PC))  returns 0x0800914A (0000ms, 3697ms total)
T253C 3200:658 JLINK_ReadReg(XPSR)  returns 0x01000000 (0000ms, 3697ms total)
T253C 3200:658 JLINK_ReadReg(MSP)  returns 0x20004DA0 (0000ms, 3697ms total)
T253C 3200:658 JLINK_ReadReg(PSP)  returns 0x20003048 (0000ms, 3697ms total)
T253C 3200:658 JLINK_ReadReg(CFBP)  returns 0x02005000 (0001ms, 3698ms total)
T253C 3200:659 JLINK_ReadReg(FPSCR)  returns 0x00000000 (0002ms, 3700ms total)
T253C 3200:661 JLINK_ReadReg(FPS0)  returns 0xA5140882 (0000ms, 3700ms total)
T253C 3200:661 JLINK_ReadReg(FPS1)  returns 0x83E885F8 (0000ms, 3700ms total)
T253C 3200:661 JLINK_ReadReg(FPS2)  returns 0x34A80620 (0000ms, 3700ms total)
T253C 3200:661 JLINK_ReadReg(FPS3)  returns 0x1819292E (0000ms, 3700ms total)
T253C 3200:661 JLINK_ReadReg(FPS4)  returns 0x0810C205 (0000ms, 3700ms total)
T253C 3200:661 JLINK_ReadReg(FPS5)  returns 0xBAB4A303 (0000ms, 3700ms total)
T253C 3200:661 JLINK_ReadReg(FPS6)  returns 0x1481AB16 (0000ms, 3700ms total)
T253C 3200:661 JLINK_ReadReg(FPS7)  returns 0x251CC067 (0000ms, 3700ms total)
T253C 3200:661 JLINK_ReadReg(FPS8)  returns 0x61BADA0B (0000ms, 3700ms total)
T253C 3200:661 JLINK_ReadReg(FPS9)  returns 0x96191526 (0000ms, 3700ms total)
T253C 3200:661 JLINK_ReadReg(FPS10)  returns 0x68029010 (0000ms, 3700ms total)
T253C 3200:661 JLINK_ReadReg(FPS11)  returns 0x04926304 (0000ms, 3700ms total)
T253C 3200:661 JLINK_ReadReg(FPS12)  returns 0xC395BB00 (0000ms, 3700ms total)
T253C 3200:661 JLINK_ReadReg(FPS13)  returns 0x83CD0111 (0000ms, 3700ms total)
T253C 3200:661 JLINK_ReadReg(FPS14)  returns 0x69C02305 (0000ms, 3700ms total)
T253C 3200:661 JLINK_ReadReg(FPS15)  returns 0x8200B182 (0000ms, 3700ms total)
T253C 3200:661 JLINK_ReadReg(FPS16)  returns 0xCC48146A (0000ms, 3700ms total)
T253C 3200:661 JLINK_ReadReg(FPS17)  returns 0x44206B94 (0000ms, 3700ms total)
T253C 3200:661 JLINK_ReadReg(FPS18)  returns 0x219CC332 (0000ms, 3700ms total)
T253C 3200:661 JLINK_ReadReg(FPS19)  returns 0xA22D9927 (0000ms, 3700ms total)
T253C 3200:661 JLINK_ReadReg(FPS20)  returns 0x3D113220 (0000ms, 3700ms total)
T253C 3200:661 JLINK_ReadReg(FPS21)  returns 0x88022189 (0000ms, 3700ms total)
T253C 3200:661 JLINK_ReadReg(FPS22)  returns 0xEE736064 (0000ms, 3700ms total)
T253C 3200:661 JLINK_ReadReg(FPS23)  returns 0xC000B038 (0000ms, 3700ms total)
T253C 3200:661 JLINK_ReadReg(FPS24)  returns 0x04C07348 (0000ms, 3700ms total)
T253C 3200:661 JLINK_ReadReg(FPS25)  returns 0x75895131 (0000ms, 3700ms total)
T253C 3200:661 JLINK_ReadReg(FPS26)  returns 0x3203E100 (0000ms, 3700ms total)
T253C 3200:661 JLINK_ReadReg(FPS27)  returns 0x11118412 (0000ms, 3700ms total)
